* c:\users\lenovo\esim-workspace\rtl_full_adder_design_and_simulation\rtl_full_adder_design_and_simulation.cir
Transient Analysis  Wed May 05 16:09:59  2021
--------------------------------------------------------------------------------
Index   time            carry           net-_q1-pad1_   net-_q1-pad2_   
--------------------------------------------------------------------------------
0	0.000000e+000	2.582667e-002	4.007424e+000	2.089966e-008	
1	1.000000e-008	2.582690e-002	4.008219e+000	5.989850e-003	
2	1.092579e-008	2.582692e-002	4.008295e+000	6.593009e-003	
3	1.277737e-008	2.582696e-002	4.008451e+000	7.897368e-003	
4	1.648053e-008	2.582705e-002	4.008766e+000	1.107763e-002	
5	2.388685e-008	2.582718e-002	4.009354e+000	1.957437e-002	
6	3.869949e-008	2.582726e-002	4.010361e+000	4.406843e-002	
7	6.832477e-008	2.582688e-002	4.011836e+000	1.161347e-001	
8	1.275753e-007	2.582485e-002	4.013336e+000	3.132039e-001	
9	2.205650e-007	2.582578e-002	3.589621e+000	6.233764e-001	
10	3.244284e-007	2.646102e-002	3.237675e-001	6.838262e-001	
11	4.275598e-007	3.067582e-002	7.226664e-002	6.883427e-001	
12	5.614418e-007	3.848231e-002	4.845743e-002	6.924118e-001	
13	7.082311e-007	5.177836e-002	3.596712e-002	6.970124e-001	
14	9.147326e-007	1.243516e-001	2.633987e-002	7.033030e-001	
15	1.000000e-006	2.514649e+000	2.371383e-002	7.057875e-001	
16	1.017987e-006	3.240422e+000	2.317755e-002	7.062158e-001	
17	1.053962e-006	4.560789e+000	2.219847e-002	7.070273e-001	
18	1.125912e-006	5.023769e+000	2.052251e-002	7.084140e-001	
19	1.180879e-006	4.968973e+000	1.949634e-002	7.093550e-001	
20	1.231666e-006	5.021843e+000	1.871180e-002	7.101621e-001	
21	1.296705e-006	4.977547e+000	1.786667e-002	7.110999e-001	
22	1.356643e-006	5.018995e+000	1.721726e-002	7.118841e-001	
23	1.444701e-006	4.981895e+000	1.642005e-002	7.129019e-001	
24	1.513876e-006	5.016336e+000	1.590144e-002	7.136091e-001	
25	1.580702e-006	4.985111e+000	1.546579e-002	7.142209e-001	
26	1.667480e-006	5.013781e+000	1.498378e-002	7.149312e-001	
27	1.749837e-006	4.987244e+000	1.459247e-002	7.155243e-001	
28	1.884604e-006	5.012142e+000	1.406661e-002	7.163600e-001	
29	2.034069e-006	4.988364e+000	1.360523e-002	7.171206e-001	
30	2.288393e-006	5.011336e+000	1.302975e-002	7.181202e-001	
31	2.689225e-006	4.988841e+000	1.245247e-002	7.191725e-001	
32	3.436978e-006	5.011060e+000	1.192017e-002	7.201997e-001	
33	4.932485e-006	4.988987e+000	1.160595e-002	7.208273e-001	
34	7.008550e-006	5.010978e+000	1.157441e-002	7.208942e-001	
35	1.024715e-005	4.989044e+000	1.157622e-002	7.208878e-001	
36	1.579744e-005	5.010943e+000	1.157622e-002	7.208905e-001	
37	2.689803e-005	4.989063e+000	1.157614e-002	7.208883e-001	
38	4.909919e-005	5.010934e+000	1.157639e-002	7.208902e-001	
39	9.350152e-005	4.989068e+000	1.157607e-002	7.208884e-001	
40	1.823062e-004	5.010931e+000	1.157642e-002	7.208901e-001	
41	3.599155e-004	4.989069e+000	1.157606e-002	7.208884e-001	
42	7.151341e-004	5.010931e+000	1.157642e-002	7.208901e-001	
43	1.001000e-003	4.989069e+000	1.157605e-002	7.208884e-001	
44	1.001100e-003	4.999825e+000	1.151423e-002	7.206267e-001	
45	1.001300e-003	5.000169e+000	1.149118e-002	7.198822e-001	
46	1.001463e-003	4.999838e+000	1.162494e-002	7.189672e-001	
47	1.001672e-003	5.000159e+000	1.199094e-002	7.174205e-001	
48	1.002000e-003	4.999849e+000	1.306079e-002	7.141903e-001	
49	1.002042e-003	4.999998e+000	1.329522e-002	7.137938e-001	
50	1.002126e-003	5.000010e+000	1.376946e-002	7.130203e-001	
51	1.002293e-003	5.000000e+000	1.468344e-002	7.116167e-001	
52	1.002460e-003	5.000008e+000	1.552678e-002	7.103901e-001	
53	1.002587e-003	4.999997e+000	1.599806e-002	7.094673e-001	
54	1.002690e-003	5.000012e+000	1.638706e-002	7.088131e-001	

Index   time            carry           net-_q1-pad1_   net-_q1-pad2_   
--------------------------------------------------------------------------------
55	1.002790e-003	5.000005e+000	1.679269e-002	7.082826e-001	
56	1.002904e-003	5.000012e+000	1.722507e-002	7.077429e-001	
57	1.003010e-003	5.000005e+000	1.760588e-002	7.073019e-001	
58	1.003164e-003	5.000011e+000	1.809691e-002	7.067356e-001	
59	1.003319e-003	5.000004e+000	1.853720e-002	7.062585e-001	
60	1.003430e-003	5.000009e+000	1.881215e-002	7.059575e-001	
61	1.003506e-003	5.000003e+000	1.898972e-002	7.057764e-001	
62	1.003577e-003	5.000008e+000	1.913881e-002	7.056157e-001	
63	1.003649e-003	5.000003e+000	1.928407e-002	7.054709e-001	
64	1.003732e-003	5.000007e+000	1.943496e-002	7.053127e-001	
65	1.003860e-003	5.000003e+000	1.964953e-002	7.051009e-001	
66	1.004007e-003	5.000006e+000	1.985797e-002	7.048904e-001	
67	1.004262e-003	5.000001e+000	2.015656e-002	7.046033e-001	
68	1.004664e-003	5.000004e+000	2.048139e-002	7.042901e-001	
69	1.005437e-003	4.999999e+000	2.081659e-002	7.039814e-001	
70	1.006569e-003	5.000002e+000	2.096920e-002	7.038381e-001	
71	1.008136e-003	4.999998e+000	2.100434e-002	7.038096e-001	
72	1.010248e-003	5.000002e+000	2.100312e-002	7.038073e-001	
73	1.014470e-003	4.999998e+000	2.100487e-002	7.038091e-001	
74	1.022915e-003	5.000002e+000	2.100307e-002	7.038073e-001	
75	1.039804e-003	4.999998e+000	2.100488e-002	7.038090e-001	
76	1.073582e-003	5.000002e+000	2.100307e-002	7.038073e-001	
77	1.141140e-003	4.999998e+000	2.100488e-002	7.038090e-001	
78	1.276254e-003	5.000002e+000	2.100306e-002	7.038073e-001	
79	1.546482e-003	4.999998e+000	2.100489e-002	7.038090e-001	
80	1.946482e-003	5.000002e+000	2.100306e-002	7.038073e-001	
81	2.001000e-003	4.999998e+000	2.100489e-002	7.038090e-001	
82	2.001100e-003	5.000000e+000	2.107535e-002	7.033862e-001	
83	2.001300e-003	5.000003e+000	2.169519e-002	7.021086e-001	
84	2.001461e-003	5.000008e+000	2.299803e-002	7.004585e-001	
85	2.001655e-003	5.000014e+000	2.581185e-002	6.977377e-001	
86	2.002000e-003	5.000041e+000	3.826994e-002	6.906525e-001	
87	2.002039e-003	5.000049e+000	4.103371e-002	6.897783e-001	
88	2.002116e-003	5.000072e+000	4.800522e-002	6.880421e-001	
89	2.002271e-003	5.000153e+000	7.356536e-002	6.847068e-001	
90	2.002429e-003	4.997301e+000	2.098258e+000	6.614950e-001	
91	2.002573e-003	1.068525e-001	4.036388e+000	2.584761e-001	
92	2.002672e-003	6.369889e-002	3.969065e+000	5.605634e-002	
93	2.002779e-003	5.105182e-002	4.038318e+000	1.514566e-002	
94	2.002894e-003	4.383810e-002	3.974187e+000	-2.75543e-003	
95	2.003004e-003	3.974382e-002	4.036170e+000	4.276507e-003	
96	2.003224e-003	3.462277e-002	3.977061e+000	-3.96128e-003	
97	2.003433e-003	3.199468e-002	4.035366e+000	3.855256e-003	
98	2.003583e-003	3.058243e-002	3.979147e+000	-3.69712e-003	
99	2.003658e-003	3.013882e-002	4.032655e+000	3.459650e-003	
100	2.003721e-003	2.967238e-002	3.983212e+000	-3.16603e-003	
101	2.003783e-003	2.939802e-002	4.028743e+000	2.923885e-003	
102	2.003877e-003	2.887662e-002	3.986422e+000	-2.75064e-003	
103	2.004002e-003	2.843802e-002	4.026816e+000	2.647842e-003	
104	2.004167e-003	2.784639e-002	3.988026e+000	-2.55562e-003	
105	2.004391e-003	2.737462e-002	4.025888e+000	2.502866e-003	
106	2.004506e-003	2.710507e-002	3.989404e+000	-2.38581e-003	
107	2.004636e-003	2.696159e-002	4.024400e+000	2.295357e-003	
108	2.004824e-003	2.667677e-002	3.990650e+000	-2.22800e-003	
109	2.005012e-003	2.655207e-002	4.023522e+000	2.169177e-003	
110	2.005387e-003	2.625558e-002	3.991399e+000	-2.13674e-003	
111	2.006040e-003	2.608411e-002	4.023235e+000	2.120654e-003	
112	2.007334e-003	2.589828e-002	3.991645e+000	-2.11163e-003	

Index   time            carry           net-_q1-pad1_   net-_q1-pad2_   
--------------------------------------------------------------------------------
113	2.009569e-003	2.593310e-002	4.023156e+000	2.106714e-003	
114	2.012548e-003	2.588644e-002	3.991711e+000	-2.10294e-003	
115	2.018505e-003	2.593501e-002	4.023114e+000	2.101122e-003	
116	2.030419e-003	2.588605e-002	3.991732e+000	-2.10015e-003	
117	2.054248e-003	2.593514e-002	4.023103e+000	2.099725e-003	
118	2.101906e-003	2.588600e-002	3.991738e+000	-2.09945e-003	
119	2.197222e-003	2.593517e-002	4.023100e+000	2.099376e-003	
120	2.387853e-003	2.588598e-002	3.991739e+000	-2.09928e-003	
121	2.769116e-003	2.593517e-002	4.023100e+000	2.099289e-003	
122	3.001000e-003	2.588608e-002	3.991740e+000	-2.09919e-003	
123	3.001100e-003	2.591061e-002	4.007215e+000	-2.58670e-005	
124	3.001300e-003	2.591111e-002	4.007618e+000	2.718647e-005	
125	3.001406e-003	2.591064e-002	4.007230e+000	-2.52297e-005	
126	3.001508e-003	2.591101e-002	4.007599e+000	2.411477e-005	
127	3.001713e-003	2.590996e-002	4.007244e+000	-2.34351e-005	
128	3.002000e-003	2.590806e-002	4.007592e+000	2.305993e-005	
129	3.002030e-003	2.590748e-002	4.007427e+000	9.975085e-007	
130	3.002090e-003	2.590665e-002	4.007413e+000	-8.55383e-007	
131	3.002211e-003	2.590458e-002	4.007426e+000	8.825448e-007	
132	3.002333e-003	2.590193e-002	4.007414e+000	-7.77530e-007	
133	3.002477e-003	2.589831e-002	4.007426e+000	8.203878e-007	
134	3.002578e-003	2.589546e-002	4.007415e+000	-7.06457e-007	
135	3.002662e-003	2.589309e-002	4.007426e+000	7.361767e-007	
136	3.002744e-003	2.589071e-002	4.007416e+000	-6.16727e-007	
137	3.002836e-003	2.588800e-002	4.007426e+000	6.566956e-007	
138	3.002920e-003	2.588543e-002	4.007417e+000	-5.42084e-007	
139	3.003089e-003	2.588026e-002	4.007426e+000	6.016270e-007	
140	3.003265e-003	2.587491e-002	4.007418e+000	-5.07861e-007	
141	3.003615e-003	2.586482e-002	4.007426e+000	5.746372e-007	
142	3.004199e-003	2.585086e-002	4.007419e+000	-5.00646e-007	
143	3.005365e-003	2.583425e-002	4.007428e+000	5.561990e-007	
144	3.006549e-003	2.582835e-002	4.007420e+000	-5.06428e-007	
145	3.008593e-003	2.582654e-002	4.007428e+000	5.478636e-007	
146	3.011229e-003	2.582669e-002	4.007420e+000	-5.05076e-007	
147	3.016499e-003	2.582666e-002	4.007428e+000	5.463562e-007	
148	3.027041e-003	2.582667e-002	4.007420e+000	-5.04296e-007	
149	3.048124e-003	2.582666e-002	4.007428e+000	5.459641e-007	
150	3.090290e-003	2.582667e-002	4.007420e+000	-5.04099e-007	
151	3.174622e-003	2.582667e-002	4.007428e+000	5.458659e-007	
152	3.343286e-003	2.582667e-002	4.007420e+000	-5.04050e-007	
153	3.680614e-003	2.582667e-002	4.007428e+000	5.458414e-007	
154	4.000000e-003	2.582667e-002	4.007420e+000	-5.04033e-007	
155	4.000100e-003	2.582491e-002	4.011716e+000	2.783161e-001	
156	4.000300e-003	2.745737e-002	7.352986e-001	6.798906e-001	
157	4.000452e-003	3.368741e-002	6.542854e-002	6.893678e-001	
158	4.000607e-003	4.476128e-002	4.329142e-002	6.937234e-001	
159	4.000808e-003	7.638648e-002	3.069573e-002	7.002613e-001	
160	4.001000e-003	3.919290e+000	2.354958e-002	7.056673e-001	
161	4.001018e-003	4.541421e+000	2.312827e-002	7.062233e-001	
162	4.001055e-003	5.006603e+000	2.211303e-002	7.070283e-001	
163	4.001097e-003	4.978349e+000	2.108217e-002	7.078466e-001	
164	4.001147e-003	5.009469e+000	2.006213e-002	7.087773e-001	
165	4.001209e-003	4.986380e+000	1.902319e-002	7.097981e-001	
166	4.001266e-003	5.009813e+000	1.823159e-002	7.106795e-001	
167	4.001326e-003	4.990121e+000	1.752473e-002	7.114938e-001	
168	4.001384e-003	5.008344e+000	1.694569e-002	7.122263e-001	
169	4.001461e-003	4.992115e+000	1.628271e-002	7.130795e-001	
170	4.001516e-003	5.006911e+000	1.588616e-002	7.136343e-001	

Index   time            carry           net-_q1-pad1_   net-_q1-pad2_   
--------------------------------------------------------------------------------
171	4.001575e-003	4.993759e+000	1.549712e-002	7.141712e-001	
172	4.001632e-003	5.005538e+000	1.517144e-002	7.146564e-001	
173	4.001690e-003	4.995024e+000	1.486596e-002	7.151015e-001	
174	4.001757e-003	5.004499e+000	1.456097e-002	7.155794e-001	
175	4.001828e-003	4.995882e+000	1.427023e-002	7.160264e-001	
176	4.001929e-003	5.003849e+000	1.391868e-002	7.166044e-001	
177	4.002034e-003	4.996371e+000	1.360322e-002	7.171202e-001	
178	4.002205e-003	5.003486e+000	1.319603e-002	7.178293e-001	
179	4.002419e-003	4.996612e+000	1.280508e-002	7.185169e-001	
180	4.002803e-003	5.003327e+000	1.233684e-002	7.193917e-001	
181	4.003485e-003	4.996702e+000	1.189963e-002	7.202345e-001	
182	4.004849e-003	5.003281e+000	1.162087e-002	7.208029e-001	
183	4.007097e-003	4.996728e+000	1.156987e-002	7.208976e-001	
184	4.010278e-003	5.003265e+000	1.157860e-002	7.208884e-001	
185	4.016118e-003	4.996738e+000	1.157378e-002	7.208896e-001	
186	4.027798e-003	5.003260e+000	1.157843e-002	7.208894e-001	
187	4.051157e-003	4.996741e+000	1.157414e-002	7.208889e-001	
188	4.097877e-003	5.003259e+000	1.157829e-002	7.208897e-001	
189	4.191316e-003	4.996742e+000	1.157420e-002	7.208888e-001	
190	4.378194e-003	5.003258e+000	1.157826e-002	7.208897e-001	
191	4.751951e-003	4.996742e+000	1.157422e-002	7.208888e-001	
192	5.001000e-003	5.003258e+000	1.157825e-002	7.208898e-001	
193	5.001100e-003	5.000052e+000	1.151450e-002	7.206263e-001	
194	5.001300e-003	4.999950e+000	1.149133e-002	7.198818e-001	
195	5.001700e-003	5.000051e+000	1.203947e-002	7.172162e-001	
196	5.002000e-003	4.999955e+000	1.304727e-002	7.142134e-001	
197	5.002038e-003	5.000002e+000	1.325908e-002	7.138540e-001	
198	5.002113e-003	5.000007e+000	1.368772e-002	7.131514e-001	
199	5.002264e-003	5.000003e+000	1.451769e-002	7.118632e-001	
200	5.002407e-003	5.000006e+000	1.526003e-002	7.107811e-001	
201	5.002544e-003	4.999998e+000	1.585479e-002	7.097985e-001	
202	5.002638e-003	5.000007e+000	1.618064e-002	7.091414e-001	
203	5.002689e-003	5.000007e+000	1.638151e-002	7.088351e-001	
204	5.002734e-003	5.000009e+000	1.656083e-002	7.085860e-001	
205	5.002782e-003	5.000008e+000	1.675014e-002	7.083368e-001	
206	5.002840e-003	5.000009e+000	1.697677e-002	7.080513e-001	
207	5.002895e-003	5.000008e+000	1.718419e-002	7.077973e-001	
208	5.002976e-003	5.000009e+000	1.747802e-002	7.074480e-001	
209	5.003052e-003	5.000008e+000	1.773429e-002	7.071499e-001	
210	5.003164e-003	5.000008e+000	1.808886e-002	7.067485e-001	
211	5.003280e-003	5.000007e+000	1.842385e-002	7.063780e-001	
212	5.003372e-003	5.000007e+000	1.866507e-002	7.061177e-001	
213	5.003452e-003	5.000005e+000	1.885712e-002	7.059127e-001	
214	5.003530e-003	5.000006e+000	1.903352e-002	7.057280e-001	
215	5.003589e-003	5.000005e+000	1.915693e-002	7.055992e-001	
216	5.003645e-003	5.000006e+000	1.926862e-002	7.054848e-001	
217	5.003724e-003	5.000005e+000	1.941633e-002	7.053334e-001	
218	5.003801e-003	5.000005e+000	1.954888e-002	7.052001e-001	
219	5.003922e-003	5.000004e+000	1.973562e-002	7.050129e-001	
220	5.004061e-003	5.000004e+000	1.992457e-002	7.048271e-001	
221	5.004294e-003	5.000003e+000	2.018251e-002	7.045762e-001	
222	5.004656e-003	5.000002e+000	2.047387e-002	7.042993e-001	
223	5.005343e-003	5.000001e+000	2.078518e-002	7.040083e-001	
224	5.006480e-003	5.000000e+000	2.096530e-002	7.038437e-001	
225	5.007989e-003	5.000000e+000	2.100033e-002	7.038099e-001	
226	5.010094e-003	5.000000e+000	2.100272e-002	7.038095e-001	
227	5.013878e-003	5.000000e+000	2.100427e-002	7.038076e-001	
228	5.021446e-003	5.000000e+000	2.100384e-002	7.038086e-001	

Index   time            carry           net-_q1-pad1_   net-_q1-pad2_   
--------------------------------------------------------------------------------
229	5.036581e-003	5.000000e+000	2.100405e-002	7.038078e-001	
230	5.066851e-003	5.000000e+000	2.100392e-002	7.038085e-001	
231	5.127391e-003	5.000000e+000	2.100402e-002	7.038078e-001	
232	5.248471e-003	5.000000e+000	2.100393e-002	7.038085e-001	
233	5.490631e-003	5.000000e+000	2.100401e-002	7.038078e-001	
234	5.890631e-003	5.000000e+000	2.100394e-002	7.038085e-001	
235	6.001000e-003	5.000000e+000	2.100400e-002	7.038079e-001	
236	6.001100e-003	5.000000e+000	2.107550e-002	7.033860e-001	
237	6.001300e-003	5.000003e+000	2.169538e-002	7.021086e-001	
238	6.001633e-003	5.000013e+000	2.532564e-002	6.981396e-001	
239	6.001981e-003	5.000038e+000	3.690595e-002	6.911902e-001	
240	6.002000e-003	5.000042e+000	3.813763e-002	6.906944e-001	
241	6.002039e-003	5.000051e+000	4.092038e-002	6.898222e-001	
242	6.002116e-003	5.000072e+000	4.787362e-002	6.880709e-001	
243	6.002271e-003	5.000151e+000	7.313198e-002	6.847396e-001	
244	6.002424e-003	5.008122e+000	1.902776e+000	6.642912e-001	
245	6.002567e-003	1.182868e-001	4.033162e+000	2.834226e-001	
246	6.002668e-003	6.479465e-002	3.971496e+000	6.113183e-002	
247	6.002776e-003	5.121609e-002	4.035891e+000	1.518984e-002	
248	6.002884e-003	4.441424e-002	3.976535e+000	-2.03712e-003	
249	6.002987e-003	4.021259e-002	4.033764e+000	4.080062e-003	
250	6.003194e-003	3.523744e-002	3.979363e+000	-3.65738e-003	
251	6.003387e-003	3.242225e-002	4.032978e+000	3.542864e-003	
252	6.003531e-003	3.107972e-002	3.981410e+000	-3.38756e-003	
253	6.003633e-003	3.024635e-002	4.030948e+000	3.233835e-003	
254	6.003730e-003	2.968956e-002	3.984113e+000	-3.04645e-003	
255	6.003839e-003	2.906600e-002	4.028726e+000	2.916370e-003	
256	6.003975e-003	2.853478e-002	3.986156e+000	-2.79367e-003	
257	6.004230e-003	2.768503e-002	4.027646e+000	2.745422e-003	
258	6.004485e-003	2.719123e-002	3.987180e+000	-2.68298e-003	
259	6.004625e-003	2.692501e-002	4.026585e+000	2.588208e-003	
260	6.004769e-003	2.678788e-002	3.988677e+000	-2.49071e-003	
261	6.004915e-003	2.658841e-002	4.025277e+000	2.405999e-003	
262	6.005208e-003	2.640539e-002	3.989711e+000	-2.36051e-003	
263	6.005650e-003	2.614701e-002	4.024811e+000	2.334057e-003	
264	6.006497e-003	2.600777e-002	3.990087e+000	-2.31880e-003	
265	6.008190e-003	2.588448e-002	4.024688e+000	2.311770e-003	
266	6.010490e-003	2.593374e-002	3.990191e+000	-2.30643e-003	
267	6.014890e-003	2.588778e-002	4.024627e+000	2.303710e-003	
268	6.023688e-003	2.593327e-002	3.990222e+000	-2.30229e-003	
269	6.041286e-003	2.588792e-002	4.024611e+000	2.301638e-003	
270	6.076480e-003	2.593322e-002	3.990230e+000	-2.30125e-003	
271	6.146870e-003	2.588794e-002	4.024608e+000	2.301120e-003	
272	6.287648e-003	2.593321e-002	3.990232e+000	-2.30099e-003	
273	6.569206e-003	2.588795e-002	4.024607e+000	2.300991e-003	
274	6.969206e-003	2.593320e-002	3.990233e+000	-2.30092e-003	
275	7.001000e-003	2.588801e-002	4.024603e+000	2.300624e-003	
276	7.001100e-003	2.591042e-002	4.007643e+000	3.176809e-005	
277	7.001300e-003	2.591066e-002	4.007202e+000	-2.85221e-005	
278	7.001405e-003	2.591055e-002	4.007627e+000	2.788049e-005	
279	7.001508e-003	2.591065e-002	4.007223e+000	-2.63064e-005	
280	7.001713e-003	2.590993e-002	4.007611e+000	2.570750e-005	
281	7.002000e-003	2.590781e-002	4.007231e+000	-2.51876e-005	
282	7.002030e-003	2.590736e-002	4.007412e+000	-1.02907e-006	
283	7.002090e-003	2.590655e-002	4.007427e+000	1.000784e-006	
284	7.002211e-003	2.590448e-002	4.007413e+000	-8.94017e-007	
285	7.002328e-003	2.590198e-002	4.007427e+000	9.219486e-007	
286	7.002467e-003	2.589850e-002	4.007414e+000	-8.17145e-007	

Index   time            carry           net-_q1-pad1_   net-_q1-pad2_   
--------------------------------------------------------------------------------
287	7.002567e-003	2.589573e-002	4.007427e+000	8.474684e-007	
288	7.002654e-003	2.589327e-002	4.007415e+000	-7.24771e-007	
289	7.002739e-003	2.589082e-002	4.007426e+000	7.545716e-007	
290	7.002824e-003	2.588831e-002	4.007416e+000	-6.34953e-007	
291	7.002902e-003	2.588598e-002	4.007426e+000	6.674609e-007	
292	7.003056e-003	2.588125e-002	4.007417e+000	-5.69108e-007	
293	7.003209e-003	2.587658e-002	4.007426e+000	6.255647e-007	
294	7.003514e-003	2.586762e-002	4.007418e+000	-5.39870e-007	
295	7.003988e-003	2.585543e-002	4.007427e+000	6.046843e-007	
296	7.004931e-003	2.583891e-002	4.007420e+000	-5.39794e-007	
297	7.006076e-003	2.582996e-002	4.007428e+000	5.878002e-007	
298	7.007823e-003	2.582671e-002	4.007420e+000	-5.42205e-007	
299	7.010124e-003	2.582665e-002	4.007429e+000	5.827451e-007	
300	7.014725e-003	2.582668e-002	4.007420e+000	-5.40309e-007	
301	7.023926e-003	2.582666e-002	4.007429e+000	5.817895e-007	
302	7.042330e-003	2.582667e-002	4.007420e+000	-5.39830e-007	
303	7.079137e-003	2.582666e-002	4.007429e+000	5.815498e-007	
304	7.152751e-003	2.582667e-002	4.007420e+000	-5.39710e-007	
